VD,ID,VG,IG,ACCSTRESS
5.00000000E+000,9.99450000E-002,-1.00000000E+001,-9.99870000E-002,0.00000000E+000
5.00000000E+000,9.99410000E-002,-9.60000000E+000,-9.99950000E-002,*
5.00000000E+000,9.99140000E-002,-9.20000000E+000,-9.99790000E-002,*
5.00000000E+000,9.99370000E-002,-8.80000000E+000,-9.99720000E-002,*
5.00000000E+000,9.99370000E-002,-8.40000000E+000,-9.99870000E-002,*
5.00000000E+000,9.99370000E-002,-8.00000000E+000,-9.99870000E-002,*
5.00000000E+000,9.99370000E-002,-7.60000000E+000,-9.99870000E-002,*
5.00000000E+000,9.99370000E-002,-7.20000000E+000,-9.99870000E-002,*
5.00000000E+000,9.99370000E-002,-6.80000000E+000,-9.99870000E-002,*
5.00000000E+000,9.99370000E-002,-6.40000000E+000,-9.99870000E-002,*
5.00000000E+000,9.99410000E-002,-6.00000000E+000,-9.99720000E-002,*
5.00000000E+000,9.99370000E-002,-5.60000000E+000,-9.99490000E-002,*
5.00000000E+000,9.99370000E-002,-5.20000000E+000,-9.99370000E-002,*
5.00000000E+000,9.99370000E-002,-4.80000000E+000,-9.99260000E-002,*
5.00000000E+000,9.99370000E-002,-4.40000000E+000,-9.99260000E-002,*
5.00000000E+000,9.99370000E-002,-4.00000000E+000,-9.99220000E-002,*
5.00000000E+000,9.99370000E-002,-3.60000000E+000,-9.99260000E-002,*
5.00000000E+000,9.99370000E-002,-3.20000000E+000,-9.99220000E-002,*
5.00000000E+000,9.99370000E-002,-2.80000000E+000,-9.97960000E-002,*
5.00000000E+000,9.99370000E-002,-2.40000000E+000,-9.89150000E-002,*
5.00000000E+000,9.99370000E-002,-2.00000000E+000,-9.76530000E-002,*
5.00000000E+000,9.99370000E-002,-1.60000000E+000,-9.61300000E-002,*
5.00000000E+000,9.99370000E-002,-1.20000000E+000,-9.43950000E-002,*
5.00000000E+000,9.99370000E-002,-8.00000000E-001,-9.24420000E-002,*
5.00000000E+000,9.99370000E-002,-4.00000000E-001,-9.02860000E-002,*
5.00000000E+000,9.79420000E-002,0.00000000E+000,-8.61890000E-002,*
5.00000000E+000,8.75360000E-002,4.00000000E-001,-7.48670000E-002,*
5.00000000E+000,7.78770000E-002,8.00000000E-001,-6.42850000E-002,*
5.00000000E+000,6.89390000E-002,1.20000000E+000,-5.44450000E-002,*
5.00000000E+000,6.07210000E-002,1.60000000E+000,-4.53150000E-002,*
5.00000000E+000,5.32400000E-002,2.00000000E+000,-3.67910000E-002,*
5.00000000E+000,4.67150000E-002,2.40000000E+000,-2.82310000E-002,*
5.00000000E+000,4.11760000E-002,2.80000000E+000,-1.93900000E-002,*
5.00000000E+000,3.64650000E-002,3.20000000E+000,-1.06950000E-002,*
5.00000000E+000,3.25660000E-002,3.60000000E+000,-2.30000000E-003,*
5.00000000E+000,2.95200000E-002,4.00000000E+000,5.66240000E-003,*
5.00000000E+000,2.75050000E-002,4.40000000E+000,1.30150000E-002,*
5.00000000E+000,2.69700000E-002,4.80000000E+000,1.91700000E-002,*
5.00000000E+000,2.74750000E-002,5.20000000E+000,2.46450000E-002,*
5.00000000E+000,2.29750000E-002,5.60000000E+000,3.55110000E-002,*
5.00000000E+000,9.50770000E-003,6.00000000E+000,5.45810000E-002,*
5.00000000E+000,-6.82040000E-003,6.40000000E+000,7.77660000E-002,*
5.00000000E+000,-2.56450000E-002,6.80000000E+000,9.87170000E-002,*
5.00000000E+000,-2.70650000E-002,7.20000000E+000,9.99950000E-002,*
5.00000000E+000,-2.76300000E-002,7.60000000E+000,9.99910000E-002,*
5.00000000E+000,-2.87460000E-002,8.00000000E+000,9.99950000E-002,*
5.00000000E+000,-2.97400000E-002,8.40000000E+000,9.99910000E-002,*
5.00000000E+000,-3.09800000E-002,8.80000000E+000,9.99950000E-002,*
5.00000000E+000,-3.15490000E-002,9.20000000E+000,9.99950000E-002,*
5.00000000E+000,-3.09450000E-002,9.60000000E+000,9.99950000E-002,*
5.00000000E+000,-3.07500000E-002,1.00000000E+001,9.99950000E-002,*
-1.00000000E+001,-1.00020000E-001,1.00000000E+000,9.87660000E-002,0.00000000E+000
-9.60000000E+000,-1.00020000E-001,1.00000000E+000,9.87660000E-002,*
-9.20000000E+000,-1.00020000E-001,1.00000000E+000,9.87660000E-002,*
-8.80000000E+000,-1.00020000E-001,1.00000000E+000,9.87700000E-002,*
-8.40000000E+000,-1.00020000E-001,1.00000000E+000,9.87700000E-002,*
-8.00000000E+000,-1.00020000E-001,1.00000000E+000,9.87700000E-002,*
-7.60000000E+000,-1.00020000E-001,1.00000000E+000,9.87660000E-002,*
-7.20000000E+000,-1.00020000E-001,1.00000000E+000,9.87660000E-002,*
-6.80000000E+000,-1.00020000E-001,1.00000000E+000,9.87700000E-002,*
-6.40000000E+000,-1.00020000E-001,1.00000000E+000,9.87700000E-002,*
-6.00000000E+000,-1.00020000E-001,1.00000000E+000,9.87700000E-002,*
-5.60000000E+000,-1.00020000E-001,1.00000000E+000,9.87660000E-002,*
-5.20000000E+000,-1.00020000E-001,1.00000000E+000,9.87660000E-002,*
-4.80000000E+000,-1.00020000E-001,1.00000000E+000,9.87660000E-002,*
-4.40000000E+000,-1.00020000E-001,1.00000000E+000,9.87630000E-002,*
-4.00000000E+000,-1.00020000E-001,1.00000000E+000,9.87630000E-002,*
-3.60000000E+000,-1.00020000E-001,1.00000000E+000,9.87660000E-002,*
-3.20000000E+000,-1.00020000E-001,1.00000000E+000,9.87660000E-002,*
-2.80000000E+000,-1.00020000E-001,1.00000000E+000,9.87630000E-002,*
-2.40000000E+000,-1.00020000E-001,1.00000000E+000,9.87660000E-002,*
-2.00000000E+000,-1.00020000E-001,1.00000000E+000,9.87630000E-002,*
-1.60000000E+000,-8.40950000E-002,1.00000000E+000,8.43850000E-002,*
-1.20000000E+000,-6.41900000E-002,1.00000000E+000,6.38470000E-002,*
-8.00000000E-001,-4.36900000E-002,1.00000000E+000,4.39450000E-002,*
-4.00000000E-001,-2.49900000E-002,1.00000000E+000,2.61900000E-002,*
0.00000000E+000,-9.71130000E-003,1.00000000E+000,1.17550000E-002,*
4.00000000E-001,-2.65750000E-003,1.00000000E+000,4.93960000E-003,*
8.00000000E-001,-6.96450000E-004,1.00000000E+000,3.01750000E-003,*
1.20000000E+000,1.38000000E-003,1.00000000E+000,9.69320000E-004,*
1.60000000E+000,5.20160000E-003,1.00000000E+000,-2.79060000E-003,*
2.00000000E+000,1.02310000E-002,1.00000000E+000,-7.73950000E-003,*
2.40000000E+000,1.62000000E-002,1.00000000E+000,-1.35950000E-002,*
2.80000000E+000,2.29900000E-002,1.00000000E+000,-2.02550000E-002,*
3.20000000E+000,3.03950000E-002,1.00000000E+000,-2.74910000E-002,*
3.60000000E+000,3.82560000E-002,1.00000000E+000,-3.52150000E-002,*
4.00000000E+000,4.64210000E-002,1.00000000E+000,-4.33650000E-002,*
4.40000000E+000,5.50310000E-002,1.00000000E+000,-5.15160000E-002,*
4.80000000E+000,6.48310000E-002,1.00000000E+000,-6.11250000E-002,*
5.20000000E+000,7.55200000E-002,1.00000000E+000,-7.74800000E-002,*
5.60000000E+000,9.48450000E-002,1.00000000E+000,-9.00270000E-002,*
6.00000000E+000,9.99370000E-002,1.00000000E+000,-9.48300000E-002,*
6.40000000E+000,9.99410000E-002,1.00000000E+000,-9.48260000E-002,*
6.80000000E+000,9.99370000E-002,1.00000000E+000,-9.48220000E-002,*
7.20000000E+000,9.99370000E-002,1.00000000E+000,-9.48140000E-002,*
7.60000000E+000,9.99370000E-002,1.00000000E+000,-9.48140000E-002,*
8.00000000E+000,9.99370000E-002,1.00000000E+000,-9.48140000E-002,*
8.40000000E+000,9.99370000E-002,1.00000000E+000,-9.48220000E-002,*
8.80000000E+000,9.99370000E-002,1.00000000E+000,-9.48140000E-002,*
9.20000000E+000,9.99370000E-002,1.00000000E+000,-9.48140000E-002,*
9.60000000E+000,9.99370000E-002,1.00000000E+000,-9.48100000E-002,*
1.00000000E+001,9.99370000E-002,1.00000000E+000,-9.48140000E-002,*
-1.00000000E+001,-1.00020000E-001,2.00000000E+000,9.99910000E-002,0.00000000E+000
-9.60000000E+000,-1.00020000E-001,2.00000000E+000,9.99910000E-002,*
-9.20000000E+000,-1.00020000E-001,2.00000000E+000,9.99870000E-002,*
-8.80000000E+000,-1.00020000E-001,2.00000000E+000,9.99910000E-002,*
-8.40000000E+000,-1.00020000E-001,2.00000000E+000,9.99870000E-002,*
-8.00000000E+000,-1.00020000E-001,2.00000000E+000,9.99870000E-002,*
-7.60000000E+000,-1.00020000E-001,2.00000000E+000,9.99910000E-002,*
-7.20000000E+000,-1.00020000E-001,2.00000000E+000,9.99910000E-002,*
-6.80000000E+000,-1.00020000E-001,2.00000000E+000,9.99910000E-002,*
-6.40000000E+000,-1.00020000E-001,2.00000000E+000,9.99910000E-002,*
-6.00000000E+000,-1.00020000E-001,2.00000000E+000,9.99910000E-002,*
-5.60000000E+000,-1.00020000E-001,2.00000000E+000,9.99910000E-002,*
-5.20000000E+000,-1.00020000E-001,2.00000000E+000,9.99910000E-002,*
-4.80000000E+000,-1.00020000E-001,2.00000000E+000,9.99870000E-002,*
-4.40000000E+000,-1.00020000E-001,2.00000000E+000,9.99870000E-002,*
-4.00000000E+000,-1.00020000E-001,2.00000000E+000,9.99910000E-002,*
-3.60000000E+000,-1.00020000E-001,2.00000000E+000,9.99910000E-002,*
-3.20000000E+000,-1.00020000E-001,2.00000000E+000,9.99870000E-002,*
-2.80000000E+000,-1.00020000E-001,2.00000000E+000,9.99870000E-002,*
-2.40000000E+000,-1.00020000E-001,2.00000000E+000,9.99910000E-002,*
-2.00000000E+000,-1.00020000E-001,2.00000000E+000,9.99910000E-002,*
-1.60000000E+000,-9.85220000E-002,2.00000000E+000,9.99870000E-002,*
-1.20000000E+000,-9.51690000E-002,2.00000000E+000,9.99910000E-002,*
-8.00000000E-001,-8.67190000E-002,2.00000000E+000,9.46540000E-002,*
-4.00000000E-001,-6.51970000E-002,2.00000000E+000,7.40360000E-002,*
0.00000000E+000,-4.50650000E-002,2.00000000E+000,5.48500000E-002,*
4.00000000E-001,-2.69360000E-002,2.00000000E+000,3.77100000E-002,*
8.00000000E-001,-1.22100000E-002,2.00000000E+000,2.37100000E-002,*
1.20000000E+000,-3.59450000E-003,2.00000000E+000,1.53650000E-002,*
1.60000000E+000,-2.95250000E-004,2.00000000E+000,1.22000000E-002,*
2.00000000E+000,1.14350000E-003,2.00000000E+000,1.08050000E-002,*
2.40000000E+000,3.87800000E-003,2.00000000E+000,8.15870000E-003,*
2.80000000E+000,7.77050000E-003,2.00000000E+000,4.40550000E-003,*
3.20000000E+000,1.24250000E-002,2.00000000E+000,-7.01020000E-005,*
3.60000000E+000,1.77700000E-002,2.00000000E+000,-5.19750000E-003,*
4.00000000E+000,2.38100000E-002,2.00000000E+000,-1.09850000E-002,*
4.40000000E+000,3.06550000E-002,2.00000000E+000,-1.75200000E-002,*
4.80000000E+000,3.84200000E-002,2.00000000E+000,-2.49150000E-002,*
5.20000000E+000,4.71950000E-002,2.00000000E+000,-3.32450000E-002,*
5.60000000E+000,5.70660000E-002,2.00000000E+000,-4.26010000E-002,*
6.00000000E+000,6.87870000E-002,2.00000000E+000,-5.35700000E-002,*
6.40000000E+000,8.37550000E-002,2.00000000E+000,-6.77410000E-002,*
6.80000000E+000,9.84190000E-002,2.00000000E+000,-8.14400000E-002,*
7.20000000E+000,9.99300000E-002,2.00000000E+000,-8.27250000E-002,*
7.60000000E+000,9.99300000E-002,2.00000000E+000,-8.27250000E-002,*
8.00000000E+000,9.99260000E-002,2.00000000E+000,-8.27250000E-002,*
8.40000000E+000,9.99370000E-002,2.00000000E+000,-8.27250000E-002,*
8.80000000E+000,9.99370000E-002,2.00000000E+000,-8.27220000E-002,*
9.20000000E+000,9.99300000E-002,2.00000000E+000,-8.27220000E-002,*
9.60000000E+000,9.99300000E-002,2.00000000E+000,-8.27140000E-002,*
1.00000000E+001,9.99300000E-002,2.00000000E+000,-8.27140000E-002,*
-1.00000000E+001,-1.00020000E-001,3.00000000E+000,9.99950000E-002,0.00000000E+000
-9.60000000E+000,-1.00020000E-001,3.00000000E+000,9.99950000E-002,*
-9.20000000E+000,-1.00020000E-001,3.00000000E+000,9.99950000E-002,*
-8.80000000E+000,-1.00020000E-001,3.00000000E+000,9.99950000E-002,*
-8.40000000E+000,-1.00020000E-001,3.00000000E+000,9.99910000E-002,*
-8.00000000E+000,-1.00020000E-001,3.00000000E+000,9.99910000E-002,*
-7.60000000E+000,-1.00020000E-001,3.00000000E+000,9.99910000E-002,*
-7.20000000E+000,-1.00020000E-001,3.00000000E+000,9.99950000E-002,*
-6.80000000E+000,-1.00020000E-001,3.00000000E+000,9.99950000E-002,*
-6.40000000E+000,-1.00020000E-001,3.00000000E+000,9.99950000E-002,*
-6.00000000E+000,-1.00020000E-001,3.00000000E+000,9.99950000E-002,*
-5.60000000E+000,-1.00020000E-001,3.00000000E+000,9.99950000E-002,*
-5.20000000E+000,-1.00020000E-001,3.00000000E+000,9.99910000E-002,*
-4.80000000E+000,-1.00020000E-001,3.00000000E+000,9.99950000E-002,*
-4.40000000E+000,-1.00020000E-001,3.00000000E+000,9.99950000E-002,*
-4.00000000E+000,-1.00020000E-001,3.00000000E+000,9.99950000E-002,*
-3.60000000E+000,-1.00020000E-001,3.00000000E+000,9.99950000E-002,*
-3.20000000E+000,-1.00020000E-001,3.00000000E+000,9.99950000E-002,*
-2.80000000E+000,-1.00020000E-001,3.00000000E+000,9.99950000E-002,*
-2.40000000E+000,-1.00020000E-001,3.00000000E+000,9.99950000E-002,*
-2.00000000E+000,-1.00020000E-001,3.00000000E+000,9.99950000E-002,*
-1.60000000E+000,-9.97510000E-002,3.00000000E+000,9.99950000E-002,*
-1.20000000E+000,-9.67750000E-002,3.00000000E+000,9.99950000E-002,*
-8.00000000E-001,-9.30440000E-002,3.00000000E+000,9.99950000E-002,*
-4.00000000E-001,-8.87950000E-002,3.00000000E+000,9.99950000E-002,*
0.00000000E+000,-8.40910000E-002,3.00000000E+000,9.99910000E-002,*
4.00000000E-001,-7.88190000E-002,3.00000000E+000,9.99950000E-002,*
8.00000000E-001,-6.03050000E-002,3.00000000E+000,8.42250000E-002,*
1.20000000E+000,-3.84600000E-002,3.00000000E+000,6.39190000E-002,*
1.60000000E+000,-1.98300000E-002,3.00000000E+000,4.62760000E-002,*
2.00000000E+000,-6.22960000E-003,3.00000000E+000,3.32050000E-002,*
2.40000000E+000,3.40100000E-004,3.00000000E+000,2.70700000E-002,*
2.80000000E+000,2.24700000E-003,3.00000000E+000,2.52850000E-002,*
3.20000000E+000,4.30060000E-003,3.00000000E+000,2.33200000E-002,*
3.60000000E+000,8.02710000E-003,3.00000000E+000,1.97710000E-002,*
4.00000000E+000,1.28450000E-002,3.00000000E+000,1.52100000E-002,*
4.40000000E+000,1.84960000E-002,3.00000000E+000,9.88580000E-003,*
4.80000000E+000,2.49000000E-002,3.00000000E+000,3.87500000E-003,*
5.20000000E+000,3.20700000E-002,3.00000000E+000,-2.83710000E-003,*
5.60000000E+000,4.00750000E-002,3.00000000E+000,-1.03090000E-002,*
6.00000000E+000,4.90700000E-002,3.00000000E+000,-1.86550000E-002,*
6.40000000E+000,5.91660000E-002,3.00000000E+000,-2.80150000E-002,*
6.80000000E+000,7.04270000E-002,3.00000000E+000,-3.84040000E-002,*
7.20000000E+000,8.30570000E-002,3.00000000E+000,-4.99900000E-002,*
7.60000000E+000,9.99370000E-002,3.00000000E+000,-6.54070000E-002,*
8.00000000E+000,9.99370000E-002,3.00000000E+000,-6.53840000E-002,*
8.40000000E+000,9.99370000E-002,3.00000000E+000,-6.53800000E-002,*
8.80000000E+000,9.99370000E-002,3.00000000E+000,-6.53760000E-002,*
9.20000000E+000,9.99370000E-002,3.00000000E+000,-6.53690000E-002,*
9.60000000E+000,9.99370000E-002,3.00000000E+000,-6.53650000E-002,*
1.00000000E+001,9.99370000E-002,3.00000000E+000,-6.53610000E-002,*
-1.00000000E+001,-1.00020000E-001,4.00000000E+000,9.99950000E-002,0.00000000E+000
-9.60000000E+000,-1.00020000E-001,4.00000000E+000,9.99910000E-002,*
-9.20000000E+000,-1.00020000E-001,4.00000000E+000,9.99910000E-002,*
-8.80000000E+000,-1.00020000E-001,4.00000000E+000,9.99910000E-002,*
-8.40000000E+000,-1.00020000E-001,4.00000000E+000,9.99910000E-002,*
-8.00000000E+000,-1.00020000E-001,4.00000000E+000,9.99950000E-002,*
-7.60000000E+000,-1.00020000E-001,4.00000000E+000,9.99910000E-002,*
-7.20000000E+000,-1.00020000E-001,4.00000000E+000,9.99910000E-002,*
-6.80000000E+000,-1.00020000E-001,4.00000000E+000,9.99950000E-002,*
-6.40000000E+000,-1.00020000E-001,4.00000000E+000,9.99950000E-002,*
-6.00000000E+000,-1.00020000E-001,4.00000000E+000,9.99910000E-002,*
-5.60000000E+000,-1.00020000E-001,4.00000000E+000,9.99950000E-002,*
-5.20000000E+000,-1.00020000E-001,4.00000000E+000,9.99950000E-002,*
-4.80000000E+000,-1.00020000E-001,4.00000000E+000,9.99910000E-002,*
-4.40000000E+000,-1.00020000E-001,4.00000000E+000,9.99950000E-002,*
-4.00000000E+000,-1.00020000E-001,4.00000000E+000,9.99910000E-002,*
-3.60000000E+000,-1.00020000E-001,4.00000000E+000,9.99950000E-002,*
-3.20000000E+000,-1.00020000E-001,4.00000000E+000,9.99950000E-002,*
-2.80000000E+000,-1.00020000E-001,4.00000000E+000,9.99950000E-002,*
-2.40000000E+000,-1.00020000E-001,4.00000000E+000,9.99950000E-002,*
-2.00000000E+000,-1.00020000E-001,4.00000000E+000,9.99950000E-002,*
-1.60000000E+000,-9.98610000E-002,4.00000000E+000,9.99910000E-002,*
-1.20000000E+000,-9.69390000E-002,4.00000000E+000,9.99910000E-002,*
-8.00000000E-001,-9.32620000E-002,4.00000000E+000,9.99910000E-002,*
-4.00000000E-001,-8.90690000E-002,4.00000000E+000,9.99950000E-002,*
0.00000000E+000,-8.43920000E-002,4.00000000E+000,9.99950000E-002,*
4.00000000E-001,-7.90830000E-002,4.00000000E+000,9.99950000E-002,*
8.00000000E-001,-7.30820000E-002,4.00000000E+000,9.99950000E-002,*
1.20000000E+000,-6.64860000E-002,4.00000000E+000,9.99950000E-002,*
1.60000000E+000,-5.94710000E-002,4.00000000E+000,9.99910000E-002,*
2.00000000E+000,-4.40560000E-002,4.00000000E+000,8.85660000E-002,*
2.40000000E+000,-2.45600000E-002,4.00000000E+000,7.00610000E-002,*
2.80000000E+000,-8.74230000E-003,4.00000000E+000,5.50250000E-002,*
3.20000000E+000,1.50750000E-003,4.00000000E+000,4.55000000E-002,*
3.60000000E+000,5.59000000E-003,4.00000000E+000,4.18360000E-002,*
4.00000000E+000,6.97300000E-003,4.00000000E+000,4.05250000E-002,*
4.40000000E+000,9.60110000E-003,4.00000000E+000,3.80550000E-002,*
4.80000000E+000,1.36150000E-002,4.00000000E+000,3.43150000E-002,*
5.20000000E+000,1.85950000E-002,4.00000000E+000,2.97050000E-002,*
5.60000000E+000,2.44750000E-002,4.00000000E+000,2.42900000E-002,*
6.00000000E+000,3.12810000E-002,4.00000000E+000,1.80550000E-002,*
6.40000000E+000,3.90510000E-002,4.00000000E+000,1.09600000E-002,*
6.80000000E+000,4.80350000E-002,4.00000000E+000,2.74550000E-003,*
7.20000000E+000,5.80350000E-002,4.00000000E+000,-6.24200000E-003,*
7.60000000E+000,6.87790000E-002,4.00000000E+000,-1.58950000E-002,*
8.00000000E+000,8.11420000E-002,4.00000000E+000,-2.69760000E-002,*
8.40000000E+000,9.50390000E-002,4.00000000E+000,-3.93810000E-002,*
8.80000000E+000,9.99410000E-002,4.00000000E+000,-4.36650000E-002,*
9.20000000E+000,9.99370000E-002,4.00000000E+000,-4.36500000E-002,*
9.60000000E+000,9.99370000E-002,4.00000000E+000,-4.36460000E-002,*
1.00000000E+001,9.99370000E-002,4.00000000E+000,-4.36400000E-002,*
-1.00000000E+001,-1.00020000E-001,5.00000000E+000,9.99910000E-002,0.00000000E+000
-9.60000000E+000,-1.00020000E-001,5.00000000E+000,9.99950000E-002,*
-9.20000000E+000,-1.00020000E-001,5.00000000E+000,9.99950000E-002,*
-8.80000000E+000,-1.00020000E-001,5.00000000E+000,9.99910000E-002,*
-8.40000000E+000,-1.00020000E-001,5.00000000E+000,9.99950000E-002,*
-8.00000000E+000,-1.00020000E-001,5.00000000E+000,9.99910000E-002,*
-7.60000000E+000,-1.00020000E-001,5.00000000E+000,9.99910000E-002,*
-7.20000000E+000,-1.00020000E-001,5.00000000E+000,9.99950000E-002,*
-6.80000000E+000,-1.00020000E-001,5.00000000E+000,9.99910000E-002,*
-6.40000000E+000,-1.00020000E-001,5.00000000E+000,9.99910000E-002,*
-6.00000000E+000,-1.00020000E-001,5.00000000E+000,9.99950000E-002,*
-5.60000000E+000,-1.00020000E-001,5.00000000E+000,9.99950000E-002,*
-5.20000000E+000,-1.00020000E-001,5.00000000E+000,9.99950000E-002,*
-4.80000000E+000,-1.00020000E-001,5.00000000E+000,9.99950000E-002,*
-4.40000000E+000,-1.00020000E-001,5.00000000E+000,9.99950000E-002,*
-4.00000000E+000,-1.00020000E-001,5.00000000E+000,9.99910000E-002,*
-3.60000000E+000,-1.00020000E-001,5.00000000E+000,9.99950000E-002,*
-3.20000000E+000,-1.00020000E-001,5.00000000E+000,9.99950000E-002,*
-2.80000000E+000,-1.00020000E-001,5.00000000E+000,9.99950000E-002,*
-2.40000000E+000,-1.00020000E-001,5.00000000E+000,9.99910000E-002,*
-2.00000000E+000,-1.00020000E-001,5.00000000E+000,9.99950000E-002,*
-1.60000000E+000,-1.00020000E-001,5.00000000E+000,9.99950000E-002,*
-1.20000000E+000,-9.13540000E-002,5.00000000E+000,9.99950000E-002,*
-8.00000000E-001,-8.11770000E-002,5.00000000E+000,9.99950000E-002,*
-4.00000000E-001,-6.91070000E-002,5.00000000E+000,9.99950000E-002,*
0.00000000E+000,-5.66900000E-002,5.00000000E+000,9.99950000E-002,*
4.00000000E-001,-4.53260000E-002,5.00000000E+000,9.99950000E-002,*
8.00000000E-001,-3.47250000E-002,5.00000000E+000,9.99950000E-002,*
1.20000000E+000,-2.45700000E-002,5.00000000E+000,9.99950000E-002,*
1.60000000E+000,-1.49850000E-002,5.00000000E+000,9.99950000E-002,*
2.00000000E+000,-6.02960000E-003,5.00000000E+000,9.99950000E-002,*
2.40000000E+000,-7.71950000E-005,5.00000000E+000,9.99950000E-002,*
2.80000000E+000,-7.58130000E-005,5.00000000E+000,9.99950000E-002,*
3.20000000E+000,-7.69310000E-005,5.00000000E+000,9.99950000E-002,*
3.60000000E+000,-7.56050000E-005,5.00000000E+000,9.99950000E-002,*
4.00000000E+000,3.39100000E-003,5.00000000E+000,9.65270000E-002,*
4.40000000E+000,1.01260000E-002,5.00000000E+000,8.97900000E-002,*
4.80000000E+000,1.26850000E-002,5.00000000E+000,8.72310000E-002,*
5.20000000E+000,1.41400000E-002,5.00000000E+000,8.57810000E-002,*
5.60000000E+000,1.70550000E-002,5.00000000E+000,8.28670000E-002,*
