VD,ID,VG,IG,ACCSTRESS
5.00000000E+000,6.39560000E-005,-1.00000000E+001,-3.05540000E-009,0.00000000E+000
5.00000000E+000,6.18580000E-005,-9.60000000E+000,2.73690000E-009,*
5.00000000E+000,6.16200000E-005,-9.20000000E+000,-2.94540000E-009,*
5.00000000E+000,6.14450000E-005,-8.80000000E+000,1.78540000E-009,*
5.00000000E+000,6.12440000E-005,-8.40000000E+000,-1.51750000E-009,*
5.00000000E+000,6.11210000E-005,-8.00000000E+000,5.51490000E-010,*
5.00000000E+000,6.09400000E-005,-7.60000000E+000,1.19150000E-009,*
5.00000000E+000,6.08930000E-005,-7.20000000E+000,-2.19290000E-009,*
5.00000000E+000,6.07740000E-005,-6.80000000E+000,2.96440000E-009,*
5.00000000E+000,6.07030000E-005,-6.40000000E+000,-2.89740000E-009,*
5.00000000E+000,6.06700000E-005,-6.00000000E+000,2.41350000E-009,*
5.00000000E+000,6.06200000E-005,-5.60000000E+000,-1.45640000E-009,*
5.00000000E+000,6.06290000E-005,-5.20000000E+000,1.02250000E-009,*
5.00000000E+000,6.05900000E-005,-4.80000000E+000,3.01000000E-010,*
5.00000000E+000,6.06640000E-005,-4.40000000E+000,-2.04090000E-009,*
5.00000000E+000,6.06790000E-005,-4.00000000E+000,3.11940000E-009,*
5.00000000E+000,6.07350000E-005,-3.60000000E+000,-2.48690000E-009,*
5.00000000E+000,6.08450000E-005,-3.20000000E+000,1.55300000E-009,*
5.00000000E+000,6.09200000E-005,-2.80000000E+000,-8.92470000E-010,*
5.00000000E+000,6.10950000E-005,-2.40000000E+000,-1.89090000E-009,*
5.00000000E+000,6.12480000E-005,-2.00000000E+000,3.24690000E-009,*
5.00000000E+000,6.14900000E-005,-1.60000000E+000,-2.20790000E-009,*
5.00000000E+000,6.19550000E-005,-1.20000000E+000,1.53200000E-009,*
5.00000000E+000,6.26440000E-005,-8.00000000E-001,-7.34990000E-010,*
5.00000000E+000,6.36990000E-005,-4.00000000E-001,-1.43550000E-009,*
5.00000000E+000,6.49580000E-005,0.00000000E+000,3.12840000E-009,*
5.00000000E+000,6.68240000E-005,4.00000000E-001,-2.59650000E-009,*
5.00000000E+000,6.94880000E-005,8.00000000E-001,1.97690000E-009,*
5.00000000E+000,7.32990000E-005,1.20000000E+000,-1.06850000E-009,*
5.00000000E+000,7.84250000E-005,1.60000000E+000,9.34510000E-010,*
5.00000000E+000,8.45790000E-005,2.00000000E+000,2.43040000E-009,*
5.00000000E+000,9.18580000E-005,2.40000000E+000,-2.47140000E-009,*
5.00000000E+000,9.99490000E-005,2.80000000E+000,3.33900000E-009,*
5.00000000E+000,1.09550000E-004,3.20000000E+000,3.31500000E-010,*
5.00000000E+000,1.19250000E-004,3.60000000E+000,2.22750000E-009,*
5.00000000E+000,1.29950000E-004,4.00000000E+000,-2.66240000E-009,*
5.00000000E+000,1.41250000E-004,4.40000000E+000,2.71190000E-009,*
5.00000000E+000,1.53400000E-004,4.80000000E+000,-1.02050000E-009,*
5.00000000E+000,1.66350000E-004,5.20000000E+000,1.90500000E-010,*
5.00000000E+000,1.79850000E-004,5.60000000E+000,3.01190000E-009,*
5.00000000E+000,1.94050000E-004,6.00000000E+000,-2.62700000E-009,*
5.00000000E+000,2.08400000E-004,6.40000000E+000,2.65550000E-009,*
5.00000000E+000,2.22750000E-004,6.80000000E+000,-9.21490000E-010,*
5.00000000E+000,2.37100000E-004,7.20000000E+000,-7.73980000E-010,*
5.00000000E+000,2.51200000E-004,7.60000000E+000,3.23540000E-009,*
5.00000000E+000,2.65510000E-004,8.00000000E+000,-2.48350000E-009,*
5.00000000E+000,2.79550000E-004,8.40000000E+000,2.57590000E-009,*
5.00000000E+000,2.93550000E-004,8.80000000E+000,-8.83970000E-010,*
5.00000000E+000,3.07650000E-004,9.20000000E+000,-7.89980000E-010,*
5.00000000E+000,3.21600000E-004,9.60000000E+000,3.26840000E-009,*
5.00000000E+000,3.35650000E-004,1.00000000E+001,-2.47940000E-009,*
0.00000000E+000,4.71990000E-008,1.00000000E+000,3.02900000E-009,0.00000000E+000
2.00000000E-001,7.29640000E-006,1.00000000E+000,-1.26350000E-009,*
4.00000000E-001,1.37050000E-005,1.00000000E+000,1.94040000E-009,*
6.00000000E-001,1.95150000E-005,1.00000000E+000,-2.69200000E-009,*
8.00000000E-001,2.46700000E-005,1.00000000E+000,3.04400000E-009,*
1.00000000E+000,2.94950000E-005,1.00000000E+000,-2.53190000E-009,*
1.20000000E+000,3.39890000E-005,1.00000000E+000,1.62850000E-009,*
1.40000000E+000,3.80890000E-005,1.00000000E+000,-1.21300000E-009,*
1.60000000E+000,4.19240000E-005,1.00000000E+000,2.25500000E-010,*
1.80000000E+000,4.53440000E-005,1.00000000E+000,1.83690000E-009,*
2.00000000E+000,4.85890000E-005,1.00000000E+000,-2.66640000E-009,*
2.20000000E+000,5.14950000E-005,1.00000000E+000,3.02900000E-009,*
2.40000000E+000,5.41990000E-005,1.00000000E+000,-2.31440000E-009,*
2.60000000E+000,5.67140000E-005,1.00000000E+000,1.49200000E-009,*
2.80000000E+000,5.90050000E-005,1.00000000E+000,-1.17450000E-009,*
3.00000000E+000,6.12030000E-005,1.00000000E+000,-2.63000000E-010,*
3.20000000E+000,6.31730000E-005,1.00000000E+000,2.39140000E-009,*
3.40000000E+000,6.51140000E-005,1.00000000E+000,-2.99040000E-009,*
3.60000000E+000,6.68990000E-005,1.00000000E+000,2.65550000E-009,*
3.80000000E+000,6.85900000E-005,1.00000000E+000,-1.84300000E-009,*
4.00000000E+000,7.02250000E-005,1.00000000E+000,1.11840000E-009,*
4.20000000E+000,7.17190000E-005,1.00000000E+000,-4.88480000E-010,*
4.40000000E+000,7.32430000E-005,1.00000000E+000,-1.93490000E-009,*
4.60000000E+000,7.46140000E-005,1.00000000E+000,2.95440000E-009,*
4.80000000E+000,7.59990000E-005,1.00000000E+000,-2.94890000E-009,*
5.00000000E+000,7.73290000E-005,1.00000000E+000,2.32900000E-009,*
5.20000000E+000,7.86030000E-005,1.00000000E+000,-1.64950000E-009,*
5.40000000E+000,7.99040000E-005,1.00000000E+000,9.65480000E-010,*
5.60000000E+000,8.10730000E-005,1.00000000E+000,1.38290000E-009,*
5.80000000E+000,8.23550000E-005,1.00000000E+000,-2.44790000E-009,*
6.00000000E+000,8.35280000E-005,1.00000000E+000,2.97600000E-009,*
6.20000000E+000,8.47280000E-005,1.00000000E+000,-2.90740000E-009,*
6.40000000E+000,8.59240000E-005,1.00000000E+000,2.29650000E-009,*
6.60000000E+000,8.70900000E-005,1.00000000E+000,-1.63000000E-009,*
6.80000000E+000,8.82930000E-005,1.00000000E+000,8.65980000E-010,*
7.00000000E+000,8.94180000E-005,1.00000000E+000,1.59650000E-009,*
7.20000000E+000,9.06620000E-005,1.00000000E+000,-2.58800000E-009,*
7.40000000E+000,9.18360000E-005,1.00000000E+000,2.95890000E-009,*
7.60000000E+000,9.30280000E-005,1.00000000E+000,-2.43790000E-009,*
7.80000000E+000,9.42540000E-005,1.00000000E+000,1.16490000E-009,*
8.00000000E+000,9.54230000E-005,1.00000000E+000,-1.87500000E-010,*
8.20000000E+000,9.67080000E-005,1.00000000E+000,-2.05190000E-009,*
8.40000000E+000,9.79000000E-005,1.00000000E+000,2.99690000E-009,*
8.60000000E+000,9.91520000E-005,1.00000000E+000,-2.39450000E-009,*
8.80000000E+000,1.00430000E-004,1.00000000E+000,1.11250000E-009,*
9.00000000E+000,1.01660000E-004,1.00000000E+000,-4.35000000E-011,*
9.20000000E+000,1.02990000E-004,1.00000000E+000,-2.70740000E-009,*
9.40000000E+000,1.04270000E-004,1.00000000E+000,2.90700000E-009,*
9.60000000E+000,1.05950000E-004,1.00000000E+000,7.55000000E-010,*
9.80000000E+000,1.07200000E-004,1.00000000E+000,1.80550000E-009,*
1.00000000E+001,1.08600000E-004,1.00000000E+000,-2.60940000E-009,*
0.00000000E+000,5.54480000E-008,2.00000000E+000,3.11190000E-009,0.00000000E+000
2.00000000E-001,9.50230000E-006,2.00000000E+000,-6.88490000E-010,*
4.00000000E-001,1.82450000E-005,2.00000000E+000,1.96040000E-009,*
6.00000000E-001,2.64200000E-005,2.00000000E+000,-2.61490000E-009,*
8.00000000E-001,3.37940000E-005,2.00000000E+000,3.07840000E-009,*
1.00000000E+000,4.04190000E-005,2.00000000E+000,-2.57790000E-009,*
1.20000000E+000,4.61990000E-005,2.00000000E+000,1.85050000E-009,*
1.40000000E+000,5.11090000E-005,2.00000000E+000,-1.31250000E-009,*
1.60000000E+000,5.53890000E-005,2.00000000E+000,5.44470000E-010,*
1.80000000E+000,5.90890000E-005,2.00000000E+000,1.37850000E-009,*
2.00000000E+000,6.25890000E-005,2.00000000E+000,-2.36640000E-009,*
2.20000000E+000,6.56810000E-005,2.00000000E+000,3.02500000E-009,*
2.40000000E+000,6.86050000E-005,2.00000000E+000,-2.86800000E-009,*
2.60000000E+000,7.12910000E-005,2.00000000E+000,1.91550000E-009,*
2.80000000E+000,7.37530000E-005,2.00000000E+000,-1.08500000E-009,*
3.00000000E+000,7.61300000E-005,2.00000000E+000,-7.97990000E-010,*
3.20000000E+000,7.82530000E-005,2.00000000E+000,2.96990000E-009,*
3.40000000E+000,8.03280000E-005,2.00000000E+000,-2.93200000E-009,*
3.60000000E+000,8.22580000E-005,2.00000000E+000,1.80650000E-009,*
3.80000000E+000,8.40500000E-005,2.00000000E+000,-1.08150000E-009,*
4.00000000E+000,8.58310000E-005,2.00000000E+000,-8.73490000E-010,*
4.20000000E+000,8.74250000E-005,2.00000000E+000,2.97100000E-009,*
4.40000000E+000,8.90340000E-005,2.00000000E+000,-2.93600000E-009,*
4.60000000E+000,9.05430000E-005,2.00000000E+000,1.81050000E-009,*
4.80000000E+000,9.19700000E-005,2.00000000E+000,-1.05950000E-009,*
5.00000000E+000,9.34380000E-005,2.00000000E+000,-9.09980000E-010,*
5.20000000E+000,9.47490000E-005,2.00000000E+000,2.66990000E-009,*
5.40000000E+000,9.61200000E-005,2.00000000E+000,-2.92850000E-009,*
5.60000000E+000,9.74240000E-005,2.00000000E+000,1.76340000E-009,*
5.80000000E+000,9.86680000E-005,2.00000000E+000,-1.00650000E-009,*
6.00000000E+000,9.99830000E-005,2.00000000E+000,-1.67490000E-009,*
6.20000000E+000,1.01160000E-004,2.00000000E+000,2.68990000E-009,*
6.40000000E+000,1.02430000E-004,2.00000000E+000,-2.93990000E-009,*
6.60000000E+000,1.03660000E-004,2.00000000E+000,1.71750000E-009,*
6.80000000E+000,1.04830000E-004,2.00000000E+000,-1.00450000E-009,*
7.00000000E+000,1.06200000E-004,2.00000000E+000,2.43540000E-009,*
7.20000000E+000,1.07450000E-004,2.00000000E+000,-2.94600000E-009,*
7.40000000E+000,1.08650000E-004,2.00000000E+000,2.86640000E-009,*
7.60000000E+000,1.09900000E-004,2.00000000E+000,-2.22100000E-009,*
7.80000000E+000,1.11150000E-004,2.00000000E+000,1.24400000E-009,*
8.00000000E+000,1.12300000E-004,2.00000000E+000,-9.79980000E-010,*
8.20000000E+000,1.13600000E-004,2.00000000E+000,-2.08240000E-009,*
8.40000000E+000,1.14800000E-004,2.00000000E+000,2.97600000E-009,*
8.60000000E+000,1.16050000E-004,2.00000000E+000,-2.89700000E-009,*
8.80000000E+000,1.17350000E-004,2.00000000E+000,1.61700000E-009,*
9.00000000E+000,1.18600000E-004,2.00000000E+000,-9.49460000E-010,*
9.20000000E+000,1.20000000E-004,2.00000000E+000,-1.93740000E-009,*
9.40000000E+000,1.21200000E-004,2.00000000E+000,2.98540000E-009,*
9.60000000E+000,1.22600000E-004,2.00000000E+000,-2.47790000E-009,*
9.80000000E+000,1.23900000E-004,2.00000000E+000,1.59600000E-009,*
1.00000000E+001,1.25250000E-004,2.00000000E+000,-1.04850000E-009,*
0.00000000E+000,7.07000000E-008,3.00000000E+000,-3.50990000E-010,0.00000000E+000
2.00000000E-001,1.14350000E-005,3.00000000E+000,1.54400000E-009,*
4.00000000E-001,2.22100000E-005,3.00000000E+000,-1.00450000E-009,*
6.00000000E-001,3.24750000E-005,3.00000000E+000,-1.62400000E-009,*
8.00000000E-001,4.19990000E-005,3.00000000E+000,2.82990000E-009,*
1.00000000E+000,5.08890000E-005,3.00000000E+000,-2.92950000E-009,*
1.20000000E+000,5.88740000E-005,3.00000000E+000,2.69740000E-009,*
1.40000000E+000,6.59190000E-005,3.00000000E+000,-1.74150000E-009,*
1.60000000E+000,7.20690000E-005,3.00000000E+000,1.17650000E-009,*
1.80000000E+000,7.73110000E-005,3.00000000E+000,-7.29980000E-010,*
2.00000000E+000,8.18930000E-005,3.00000000E+000,-2.08340000E-009,*
2.20000000E+000,8.56890000E-005,3.00000000E+000,2.96390000E-009,*
2.40000000E+000,8.90640000E-005,3.00000000E+000,-2.86990000E-009,*
2.60000000E+000,9.20030000E-005,3.00000000E+000,1.91350000E-009,*
2.80000000E+000,9.46590000E-005,3.00000000E+000,-1.12950000E-009,*
3.00000000E+000,9.72150000E-005,3.00000000E+000,-4.16990000E-010,*
3.20000000E+000,9.94650000E-005,3.00000000E+000,2.78750000E-009,*
3.40000000E+000,1.01700000E-004,3.00000000E+000,-2.88990000E-009,*
3.60000000E+000,1.03740000E-004,3.00000000E+000,1.92740000E-009,*
3.80000000E+000,1.05700000E-004,3.00000000E+000,8.87980000E-010,*
4.00000000E+000,1.07450000E-004,3.00000000E+000,1.69000000E-009,*
4.20000000E+000,1.09300000E-004,3.00000000E+000,-2.69490000E-009,*
4.40000000E+000,1.10950000E-004,3.00000000E+000,2.89050000E-009,*
4.60000000E+000,1.12550000E-004,3.00000000E+000,-1.69890000E-009,*
4.80000000E+000,1.14100000E-004,3.00000000E+000,1.06550000E-009,*
5.00000000E+000,1.15500000E-004,3.00000000E+000,1.57500000E-010,*
5.20000000E+000,1.17000000E-004,3.00000000E+000,-2.47040000E-009,*
5.40000000E+000,1.18350000E-004,3.00000000E+000,3.05440000E-009,*
5.60000000E+000,1.19750000E-004,3.00000000E+000,-2.17390000E-009,*
5.80000000E+000,1.21100000E-004,3.00000000E+000,1.06650000E-009,*
6.00000000E+000,1.22350000E-004,3.00000000E+000,2.26000000E-010,*
6.20000000E+000,1.23700000E-004,3.00000000E+000,-2.23640000E-009,*
6.40000000E+000,1.24900000E-004,3.00000000E+000,3.04590000E-009,*
6.60000000E+000,1.26200000E-004,3.00000000E+000,-2.19600000E-009,*
6.80000000E+000,1.27500000E-004,3.00000000E+000,1.06650000E-009,*
7.00000000E+000,1.28650000E-004,3.00000000E+000,2.36000000E-010,*
7.20000000E+000,1.29950000E-004,3.00000000E+000,-2.44600000E-009,*
7.40000000E+000,1.31150000E-004,3.00000000E+000,3.03590000E-009,*
7.60000000E+000,1.32400000E-004,3.00000000E+000,-2.20100000E-009,*
7.80000000E+000,1.33650000E-004,3.00000000E+000,1.03900000E-009,*
8.00000000E+000,1.34900000E-004,3.00000000E+000,2.58990000E-010,*
8.20000000E+000,1.36200000E-004,3.00000000E+000,-2.29000000E-009,*
8.40000000E+000,1.37450000E-004,3.00000000E+000,3.02940000E-009,*
8.60000000E+000,1.38700000E-004,3.00000000E+000,-2.19700000E-009,*
8.80000000E+000,1.40000000E-004,3.00000000E+000,1.03100000E-009,*
9.00000000E+000,1.41300000E-004,3.00000000E+000,1.78990000E-010,*
9.20000000E+000,1.42600000E-004,3.00000000E+000,-2.50140000E-009,*
9.40000000E+000,1.43900000E-004,3.00000000E+000,3.03440000E-009,*
9.60000000E+000,1.45250000E-004,3.00000000E+000,-2.19540000E-009,*
9.80000000E+000,1.46650000E-004,3.00000000E+000,1.02350000E-009,*
1.00000000E+001,1.47950000E-004,3.00000000E+000,6.74980000E-011,*
0.00000000E+000,8.89490000E-008,4.00000000E+000,3.15740000E-009,0.00000000E+000
2.00000000E-001,1.32300000E-005,4.00000000E+000,-1.62090000E-009,*
4.00000000E-001,2.58140000E-005,4.00000000E+000,2.91790000E-009,*
6.00000000E-001,3.79350000E-005,4.00000000E+000,-2.89340000E-009,*
8.00000000E-001,4.94700000E-005,4.00000000E+000,2.67040000E-009,*
1.00000000E+000,6.03350000E-005,4.00000000E+000,-1.66100000E-009,*
1.20000000E+000,7.04000000E-005,4.00000000E+000,1.16400000E-009,*
1.40000000E+000,7.94460000E-005,4.00000000E+000,-5.87480000E-010,*
1.60000000E+000,8.76300000E-005,4.00000000E+000,-1.46140000E-009,*
1.80000000E+000,9.47830000E-005,4.00000000E+000,2.67640000E-009,*
2.00000000E+000,1.01240000E-004,4.00000000E+000,-2.89340000E-009,*
2.20000000E+000,1.06900000E-004,4.00000000E+000,-2.75350000E-009,*
2.40000000E+000,1.11900000E-004,4.00000000E+000,2.08740000E-009,*
2.60000000E+000,1.16250000E-004,4.00000000E+000,-1.35450000E-009,*
2.80000000E+000,1.20050000E-004,4.00000000E+000,6.42990000E-010,*
3.00000000E+000,1.23200000E-004,4.00000000E+000,2.11340000E-009,*
3.20000000E+000,1.26150000E-004,4.00000000E+000,-2.72040000E-009,*
3.40000000E+000,1.28550000E-004,4.00000000E+000,3.03840000E-009,*
3.60000000E+000,1.30850000E-004,4.00000000E+000,-2.42290000E-009,*
3.80000000E+000,1.32950000E-004,4.00000000E+000,1.24700000E-009,*
4.00000000E+000,1.34900000E-004,4.00000000E+000,-8.25990000E-010,*
4.20000000E+000,1.36800000E-004,4.00000000E+000,-1.78490000E-009,*
4.40000000E+000,1.38500000E-004,4.00000000E+000,3.03790000E-009,*
4.60000000E+000,1.40250000E-004,4.00000000E+000,-2.46640000E-009,*
4.80000000E+000,1.41850000E-004,4.00000000E+000,1.26150000E-009,*
5.00000000E+000,1.43400000E-004,4.00000000E+000,-1.52990000E-010,*
5.20000000E+000,1.44950000E-004,4.00000000E+000,-2.42640000E-009,*
5.40000000E+000,1.46300000E-004,4.00000000E+000,3.03090000E-009,*
5.60000000E+000,1.47800000E-004,4.00000000E+000,-2.47140000E-009,*
5.80000000E+000,1.49150000E-004,4.00000000E+000,1.25700000E-009,*
6.00000000E+000,1.50450000E-004,4.00000000E+000,-8.14990000E-010,*
6.20000000E+000,1.51850000E-004,4.00000000E+000,-1.77540000E-009,*
6.40000000E+000,1.53100000E-004,4.00000000E+000,3.00340000E-009,*
6.60000000E+000,1.54450000E-004,4.00000000E+000,-2.52690000E-009,*
6.80000000E+000,1.55700000E-004,4.00000000E+000,1.26200000E-009,*
7.00000000E+000,1.56950000E-004,4.00000000E+000,-2.50000000E-010,*
7.20000000E+000,1.58300000E-004,4.00000000E+000,-2.40200000E-009,*
7.40000000E+000,1.59500000E-004,4.00000000E+000,3.01540000E-009,*
7.60000000E+000,1.60800000E-004,4.00000000E+000,-2.03940000E-009,*
7.80000000E+000,1.62050000E-004,4.00000000E+000,1.25500000E-009,*
8.00000000E+000,1.63300000E-004,4.00000000E+000,-9.49960000E-010,*
8.20000000E+000,1.64650000E-004,4.00000000E+000,-2.35050000E-009,*
8.40000000E+000,1.65850000E-004,4.00000000E+000,2.98890000E-009,*
8.60000000E+000,1.67200000E-004,4.00000000E+000,-2.57990000E-009,*
8.80000000E+000,1.68500000E-004,4.00000000E+000,1.29150000E-009,*
9.00000000E+000,1.69750000E-004,4.00000000E+000,-3.00490000E-010,*
9.20000000E+000,1.71200000E-004,4.00000000E+000,-2.35940000E-009,*
9.40000000E+000,1.72400000E-004,4.00000000E+000,3.01790000E-009,*
9.60000000E+000,1.73850000E-004,4.00000000E+000,-2.57940000E-009,*
9.80000000E+000,1.75200000E-004,4.00000000E+000,1.29050000E-009,*
1.00000000E+001,1.76500000E-004,4.00000000E+000,-1.12350000E-009,*
0.00000000E+000,7.91480000E-008,5.00000000E+000,2.93450000E-009,0.00000000E+000
2.00000000E-001,1.48700000E-005,5.00000000E+000,3.34000000E-010,*
4.00000000E-001,2.91550000E-005,5.00000000E+000,2.40450000E-009,*
6.00000000E-001,4.30490000E-005,5.00000000E+000,-2.73390000E-009,*
8.00000000E-001,5.63600000E-005,5.00000000E+000,3.00340000E-009,*
1.00000000E+000,6.90740000E-005,5.00000000E+000,-1.73950000E-009,*
1.20000000E+000,8.10250000E-005,5.00000000E+000,1.24950000E-009,*
1.40000000E+000,9.19740000E-005,5.00000000E+000,-6.36990000E-010,*
1.60000000E+000,1.02060000E-004,5.00000000E+000,-1.50790000E-009,*
1.80000000E+000,1.11200000E-004,5.00000000E+000,-2.62140000E-009,*
2.00000000E+000,1.19450000E-004,5.00000000E+000,3.00040000E-009,*
2.20000000E+000,1.26900000E-004,5.00000000E+000,-2.15640000E-009,*
2.40000000E+000,1.33600000E-004,5.00000000E+000,1.41700000E-009,*
2.60000000E+000,1.39650000E-004,5.00000000E+000,-1.04600000E-009,*
2.80000000E+000,1.45100000E-004,5.00000000E+000,-2.68500000E-010,*
3.00000000E+000,1.49850000E-004,5.00000000E+000,2.42240000E-009,*
3.20000000E+000,1.54250000E-004,5.00000000E+000,-2.85800000E-009,*
3.40000000E+000,1.58000000E-004,5.00000000E+000,2.99440000E-009,*
3.60000000E+000,1.61450000E-004,5.00000000E+000,-2.30040000E-009,*
3.80000000E+000,1.64350000E-004,5.00000000E+000,1.56440000E-009,*
4.00000000E+000,1.66850000E-004,5.00000000E+000,-1.18650000E-009,*
4.20000000E+000,1.69200000E-004,5.00000000E+000,2.97990000E-010,*
4.40000000E+000,1.71100000E-004,5.00000000E+000,1.76540000E-009,*
4.60000000E+000,1.73050000E-004,5.00000000E+000,-2.58490000E-009,*
4.80000000E+000,1.74700000E-004,5.00000000E+000,3.07940000E-009,*
5.00000000E+000,1.76450000E-004,5.00000000E+000,-2.76000000E-009,*
5.20000000E+000,1.78050000E-004,5.00000000E+000,1.74090000E-009,*
5.40000000E+000,1.79600000E-004,5.00000000E+000,-1.28850000E-009,*
5.60000000E+000,1.81150000E-004,5.00000000E+000,-1.47490000E-010,*
5.80000000E+000,1.82500000E-004,5.00000000E+000,2.75790000E-009,*
6.00000000E+000,1.84000000E-004,5.00000000E+000,-2.90090000E-009,*
6.20000000E+000,1.85350000E-004,5.00000000E+000,2.33900000E-009,*
6.40000000E+000,1.86700000E-004,5.00000000E+000,-1.31400000E-009,*
6.60000000E+000,1.88100000E-004,5.00000000E+000,-1.44000000E-010,*
6.80000000E+000,1.89350000E-004,5.00000000E+000,2.68350000E-009,*
7.00000000E+000,1.90750000E-004,5.00000000E+000,-2.90490000E-009,*
7.20000000E+000,1.92000000E-004,5.00000000E+000,1.81890000E-009,*
7.40000000E+000,1.93300000E-004,5.00000000E+000,-1.04100000E-009,*
7.60000000E+000,1.94650000E-004,5.00000000E+000,-7.92990000E-010,*
7.80000000E+000,1.95900000E-004,5.00000000E+000,2.70740000E-009,*
8.00000000E+000,1.97250000E-004,5.00000000E+000,-2.93340000E-009,*
8.20000000E+000,1.98600000E-004,5.00000000E+000,1.83390000E-009,*
8.40000000E+000,1.99850000E-004,5.00000000E+000,-1.36050000E-009,*
